T2DBC 6495:892.353   SEGGER J-Link V6.89b (beta) Log File
T2DBC 6495:892.483   DLL Compiled: Dec  3 2020 14:53:34
T2DBC 6495:892.506   Logging started @ 2021-03-27 05:32
T2DBC 6495:892.525 - 1551221.898ms
T2DBC 6495:892.559 JLINK_SetWarnOutHandler(...)
T2DBC 6495:892.579 - 0.029ms
T2DBC 6495:892.602 JLINK_OpenEx(...)
T2DBC 6495:894.990   Firmware: J-Link V9 compiled Dec 13 2019 11:14:50
T2DBC 6495:895.264   Decompressing FW timestamp took 187 us
T2DBC 6495:903.726   Hardware: V9.70
T2DBC 6495:903.813   S/N: 59701300
T2DBC 6495:903.865   OEM: SEGGER
T2DBC 6495:903.918   Feature(s): RDI, GDB, FlashDL, FlashBP, JFlash
T2DBC 6495:906.324   TELNET listener socket opened on port 19021
T2DBC 6495:912.271   WEBSRV Starting webserver
T2DBC 6495:912.885   WEBSRV Webserver running on local port 19080
T2DBC 6495:912.973 - 20.394ms returns "O.K."
T2DBC 6495:913.052 JLINK_GetEmuCaps()
T2DBC 6495:913.094 - 0.062ms returns 0xB9FF7BBF
T2DBC 6495:913.146 JLINK_TIF_GetAvailable(...)
T2DBC 6495:913.786 - 0.692ms
T2DBC 6495:914.462 JLINK_SetErrorOutHandler(...)
T2DBC 6495:914.515 - 0.071ms
T2DBC 6495:914.570 JLINK_ExecCommand("ProjectFile = "D:\code\C_CPP_file\BIG_windmill\MDK-ARM\JLinkSettings.ini"", ...). 
T2DBC 6495:917.322 - 2.780ms returns 0x00
T2DBC 6495:917.429 JLINK_ExecCommand("Device = STM32F407VGTx", ...). 
T2DBC 6495:918.552   Device "STM32F407VG" selected.
T2DBC 6495:919.781 - 2.335ms returns 0x00
T2DBC 6495:919.867 JLINK_GetHardwareVersion()
T2DBC 6495:919.901 - 0.050ms returns 97000
T2DBC 6495:919.938 JLINK_GetDLLVersion()
T2DBC 6495:919.970 - 0.048ms returns 68902
T2DBC 6495:920.007 JLINK_GetOEMString(...)
T2DBC 6495:920.045 JLINK_GetFirmwareString(...)
T2DBC 6495:920.078 - 0.049ms
T2DBC 6495:920.170 JLINK_GetDLLVersion()
T2DBC 6495:920.203 - 0.049ms returns 68902
T2DBC 6495:920.239 JLINK_GetCompileDateTime()
T2DBC 6495:920.271 - 0.048ms
T2DBC 6495:920.317 JLINK_GetFirmwareString(...)
T2DBC 6495:920.350 - 0.048ms
T2DBC 6495:920.392 JLINK_GetHardwareVersion()
T2DBC 6495:920.425 - 0.048ms returns 97000
T2DBC 6495:920.469 JLINK_GetSN()
T2DBC 6495:920.505 - 0.054ms returns 59701300
T2DBC 6495:920.551 JLINK_GetOEMString(...)
T2DBC 6495:920.612 JLINK_TIF_Select(JLINKARM_TIF_SWD)
T2DBC 6495:922.752 - 2.190ms returns 0x00
T2DBC 6495:922.841 JLINK_HasError()
T2DBC 6495:922.886 JLINK_SetSpeed(5000)
T2DBC 6495:923.363 - 0.507ms
T2DBC 6495:923.423 JLINK_GetId()
T2DBC 6495:925.405   Found SW-DP with ID 0x2BA01477
T2DBC 6495:957.996   Found SW-DP with ID 0x2BA01477
T2DBC 6495:961.585   Old FW that does not support reading DPIDR via DAP jobs
T2DBC 6495:962.619   DPv0 detected
T2DBC 6495:962.696   Scanning AP map to find all available APs
T2DBC 6495:963.994   AP[1]: Stopped AP scan as end of AP map has been reached
T2DBC 6495:964.067   AP[0]: AHB-AP (IDR: 0x24770011)
T2DBC 6495:964.124   Iterating through AP map to find AHB-AP to use
T2DBC 6495:965.562   AP[0]: Core found
T2DBC 6495:965.635   AP[0]: AHB-AP ROM base: 0xE00FF000
T2DBC 6495:966.881   CPUID register: 0x410FC241. Implementer code: 0x41 (ARM)
T2DBC 6495:966.970   Found Cortex-M4 r0p1, Little endian.
T2DBC 6496:070.196   -- Max. mem block: 0x00010BB0
T2DBC 6496:071.133   CPU_ReadMem(4 bytes @ 0xE000EDF0)
T2DBC 6496:071.826   CPU_ReadMem(4 bytes @ 0xE0002000)
T2DBC 6496:072.503   FPUnit: 6 code (BP) slots and 2 literal slots
T2DBC 6496:072.577   CPU_ReadMem(4 bytes @ 0xE000EDFC)
T2DBC 6496:073.230   CPU_WriteMem(4 bytes @ 0xE000EDFC)
T2DBC 6496:073.852   CPU_ReadMem(4 bytes @ 0xE0001000)
T2DBC 6496:074.439   CPU_WriteMem(4 bytes @ 0xE0001000)
T2DBC 6496:075.069   CPU_ReadMem(4 bytes @ 0xE000ED88)
T2DBC 6496:075.678   CPU_WriteMem(4 bytes @ 0xE000ED88)
T2DBC 6496:076.304   CPU_ReadMem(4 bytes @ 0xE000ED88)
T2DBC 6496:076.938   CPU_WriteMem(4 bytes @ 0xE000ED88)
T2DBC 6496:077.623   CoreSight components:
T2DBC 6496:077.708   ROMTbl[0] @ E00FF000
T2DBC 6496:077.766   CPU_ReadMem(64 bytes @ 0xE00FF000)
T2DBC 6496:078.628   CPU_ReadMem(32 bytes @ 0xE000EFE0)
T2DBC 6496:079.374   ROMTbl[0][0]: E000E000, CID: B105E00D, PID: 000BB00C SCS-M7
T2DBC 6496:079.626   CPU_ReadMem(32 bytes @ 0xE0001FE0)
T2DBC 6496:080.367   ROMTbl[0][1]: E0001000, CID: B105E00D, PID: 003BB002 DWT
T2DBC 6496:080.443   CPU_ReadMem(32 bytes @ 0xE0002FE0)
T2DBC 6496:081.225   ROMTbl[0][2]: E0002000, CID: B105E00D, PID: 002BB003 FPB
T2DBC 6496:081.305   CPU_ReadMem(32 bytes @ 0xE0000FE0)
T2DBC 6496:082.074   ROMTbl[0][3]: E0000000, CID: B105E00D, PID: 003BB001 ITM
T2DBC 6496:082.845   CPU_ReadMem(32 bytes @ 0xE0040FE0)
T2DBC 6496:083.625   ROMTbl[0][4]: E0040000, CID: B105900D, PID: 000BB9A1 TPIU
T2DBC 6496:083.755   CPU_ReadMem(32 bytes @ 0xE0041FE0)
T2DBC 6496:084.898   ROMTbl[0][5]: E0041000, CID: B105900D, PID: 000BB925 ETM
T2DBC 6496:085.492 - 162.105ms returns 0x2BA01477
T2DBC 6496:085.568 JLINK_GetDLLVersion()
T2DBC 6496:085.617 - 0.067ms returns 68902
T2DBC 6496:085.771 JLINK_CORE_GetFound()
T2DBC 6496:085.819 - 0.064ms returns 0xE0000FF
T2DBC 6496:085.861 JLINK_GetDebugInfo(0x100 = JLINKARM_ROM_TABLE_ADDR_INDEX)
T2DBC 6496:085.897   Value=0xE00FF000
T2DBC 6496:085.945 - 0.100ms returns 0
T2DBC 6496:086.006 JLINK_GetDebugInfo(0x100 = JLINKARM_ROM_TABLE_ADDR_INDEX)
T2DBC 6496:086.040   Value=0xE00FF000
T2DBC 6496:086.087 - 0.097ms returns 0
T2DBC 6496:086.122 JLINK_GetDebugInfo(0x101 = JLINKARM_DEBUG_INFO_ETM_ADDR_INDEX)
T2DBC 6496:086.155   Value=0xE0041000
T2DBC 6496:086.203 - 0.097ms returns 0
T2DBC 6496:086.242 JLINK_ReadMemEx(0xE0041FD0, 0x20 Bytes, Flags = 0x02000004)
T2DBC 6496:086.294   CPU_ReadMem(32 bytes @ 0xE0041FD0)
T2DBC 6496:087.032   Data:  04 00 00 00 00 00 00 00 00 00 00 00 00 00 00 00 ...
T2DBC 6496:087.096 - 0.870ms returns 32 (0x20)
T2DBC 6496:087.137 JLINK_GetDebugInfo(0x102 = JLINKARM_DEBUG_INFO_MTB_ADDR_INDEX)
T2DBC 6496:087.171   Value=0x00000000
T2DBC 6496:087.219 - 0.098ms returns 0
T2DBC 6496:087.254 JLINK_GetDebugInfo(0x103 = JLINKARM_DEBUG_INFO_TPIU_ADDR_INDEX)
T2DBC 6496:087.287   Value=0xE0040000
T2DBC 6496:087.335 - 0.097ms returns 0
T2DBC 6496:087.370 JLINK_GetDebugInfo(0x104 = JLINKARM_DEBUG_INFO_ITM_ADDR_INDEX)
T2DBC 6496:087.403   Value=0xE0000000
T2DBC 6496:087.457 - 0.113ms returns 0
T2DBC 6496:087.513 JLINK_GetDebugInfo(0x105 = JLINKARM_DEBUG_INFO_DWT_ADDR_INDEX)
T2DBC 6496:087.564   Value=0xE0001000
T2DBC 6496:087.629 - 0.133ms returns 0
T2DBC 6496:087.668 JLINK_GetDebugInfo(0x106 = JLINKARM_DEBUG_INFO_FPB_ADDR_INDEX)
T2DBC 6496:087.703   Value=0xE0002000
T2DBC 6496:087.750 - 0.098ms returns 0
T2DBC 6496:087.785 JLINK_GetDebugInfo(0x107 = JLINKARM_DEBUG_INFO_NVIC_ADDR_INDEX)
T2DBC 6496:087.818   Value=0xE000E000
T2DBC 6496:087.865 - 0.096ms returns 0
T2DBC 6496:087.900 JLINK_GetDebugInfo(0x10C = JLINKARM_DEBUG_INFO_DBG_ADDR_INDEX)
T2DBC 6496:087.933   Value=0xE000EDF0
T2DBC 6496:087.981 - 0.096ms returns 0
T2DBC 6496:088.015 JLINK_GetDebugInfo(0x01 = Unknown)
T2DBC 6496:088.049   Value=0x00000001
T2DBC 6496:088.096 - 0.097ms returns 0
T2DBC 6496:088.135 JLINK_ReadMemU32(0xE000ED00, 0x1 Items)
T2DBC 6496:088.178   CPU_ReadMem(4 bytes @ 0xE000ED00)
T2DBC 6496:088.771   Data:  41 C2 0F 41
T2DBC 6496:088.836   Debug reg: CPUID
T2DBC 6496:088.885 - 0.765ms returns 1 (0x1)
T2DBC 6496:088.925 JLINK_GetDebugInfo(0x10F = JLINKARM_DEBUG_INFO_HAS_CORTEX_M_SECURITY_EXT_INDEX)
T2DBC 6496:088.960   Value=0x00000000
T2DBC 6496:089.007 - 0.098ms returns 0
T2DBC 6496:089.043 JLINK_HasError()
T2DBC 6496:089.084 JLINK_SetResetType(JLINKARM_CM3_RESET_TYPE_NORMAL)
T2DBC 6496:089.118 - 0.050ms returns JLINKARM_CM3_RESET_TYPE_NORMAL
T2DBC 6496:089.155 JLINK_Reset()
T2DBC 6496:089.199   CPU is running
T2DBC 6496:089.251   CPU_WriteMem(4 bytes @ 0xE000EDF0)
T2DBC 6496:089.954   CPU is running
T2DBC 6496:090.022   CPU_WriteMem(4 bytes @ 0xE000EDFC)
T2DBC 6496:090.655   Reset: Halt core after reset via DEMCR.VC_CORERESET.
T2DBC 6496:092.024   Reset: Reset device via AIRCR.SYSRESETREQ.
T2DBC 6496:092.103   CPU is running
T2DBC 6496:092.165   CPU_WriteMem(4 bytes @ 0xE000ED0C)
T2DBC 6496:145.227   CPU_ReadMem(4 bytes @ 0xE000EDF0)
T2DBC 6496:145.957   CPU_ReadMem(4 bytes @ 0xE000EDF0)
T2DBC 6496:146.580   CPU is running
T2DBC 6496:146.669   CPU_WriteMem(4 bytes @ 0xE000EDF0)
T2DBC 6496:147.365   CPU is running
T2DBC 6496:147.440   CPU_WriteMem(4 bytes @ 0xE000EDFC)
T2DBC 6496:153.850   CPU_ReadMem(4 bytes @ 0xE000EDF0)
T2DBC 6496:157.094   CPU_WriteMem(4 bytes @ 0xE0002000)
T2DBC 6496:157.743   CPU_ReadMem(4 bytes @ 0xE000EDFC)
T2DBC 6496:158.363   CPU_ReadMem(4 bytes @ 0xE0001000)
T2DBC 6496:158.983 - 69.868ms
T2DBC 6496:159.104 JLINK_HasError()
T2DBC 6496:159.191 JLINK_ReadReg(R15 (PC))
T2DBC 6496:159.254 - 0.089ms returns 0x0800025C
T2DBC 6496:159.321 JLINK_ReadReg(XPSR)
T2DBC 6496:159.378 - 0.075ms returns 0x01000000
T2DBC 6496:159.526 JLINK_Halt()
T2DBC 6496:159.574 - 0.065ms returns 0x00
T2DBC 6496:159.612 JLINK_ReadMemU32(0xE000EDF0, 0x1 Items)
T2DBC 6496:159.660   CPU_ReadMem(4 bytes @ 0xE000EDF0)
T2DBC 6496:160.222   Data:  03 00 03 00
T2DBC 6496:160.292   Debug reg: DHCSR
T2DBC 6496:160.403 - 0.812ms returns 1 (0x1)
T2DBC 6496:160.458 JLINK_WriteU32_64(0xE000EDF0, 0xA05F0003)
T2DBC 6496:160.500   Debug reg: DHCSR
T2DBC 6496:161.092   CPU_WriteMem(4 bytes @ 0xE000EDF0)
T2DBC 6496:161.764 - 1.342ms returns 0 (0x00000000)
T2DBC 6496:161.837 JLINK_WriteU32_64(0xE000EDFC, 0x01000000)
T2DBC 6496:161.887   Debug reg: DEMCR
T2DBC 6496:161.951   CPU_WriteMem(4 bytes @ 0xE000EDFC)
T2DBC 6496:162.562 - 0.758ms returns 0 (0x00000000)
T2DBC 6496:162.711 JLINK_GetHWStatus(...)
T2DBC 6496:163.197 - 0.519ms returns 0
T2DBC 6496:163.297 JLINK_GetNumBPUnits(Type = 0xFFFFFF00)
T2DBC 6496:163.334 - 0.053ms returns 0x06
T2DBC 6496:163.369 JLINK_GetNumBPUnits(Type = 0xF0)
T2DBC 6496:163.402 - 0.048ms returns 0x2000
T2DBC 6496:163.439 JLINK_GetNumWPUnits()
T2DBC 6496:163.471 - 0.048ms returns 4
T2DBC 6496:163.527 JLINK_GetSpeed()
T2DBC 6496:163.560 - 0.049ms returns 4000
T2DBC 6496:163.612 JLINK_ReadMemU32(0xE000E004, 0x1 Items)
T2DBC 6496:163.658   CPU_ReadMem(4 bytes @ 0xE000E004)
T2DBC 6496:164.249   Data:  02 00 00 00
T2DBC 6496:164.314 - 0.718ms returns 1 (0x1)
T2DBC 6496:164.354 JLINK_ReadMemU32(0xE000E004, 0x1 Items)
T2DBC 6496:164.397   CPU_ReadMem(4 bytes @ 0xE000E004)
T2DBC 6496:164.995   Data:  02 00 00 00
T2DBC 6496:165.057 - 0.719ms returns 1 (0x1)
T2DBC 6496:165.103 JLINK_WriteMemEx(0xE0001000, 0x0000001C Bytes, Flags = 0x02000004)
T2DBC 6496:165.138   Data:  01 00 00 00 00 00 00 00 00 00 00 00 00 00 00 00 ...
T2DBC 6496:165.200   CPU_WriteMem(28 bytes @ 0xE0001000)
T2DBC 6496:165.922 - 0.848ms returns 0x1C
T2DBC 6496:165.978 JLINK_HasError()
T2DBC 6496:166.016 JLINK_ReadReg(R15 (PC))
T2DBC 6496:166.055 - 0.055ms returns 0x0800025C
T2DBC 6496:166.091 JLINK_ReadReg(XPSR)
T2DBC 6496:166.124 - 0.049ms returns 0x01000000
T2DBC 6496:178.870 JLINK_ReadMemEx(0xE0001004, 0x4 Bytes, Flags = 0x02000000)
T2DBC 6496:179.001   Data:  00 00 00 00
T2DBC 6496:179.065   Debug reg: DWT_CYCCNT
T2DBC 6496:179.113 - 0.260ms returns 4 (0x4)
T2DBC 6496:314.773 JLINK_HasError()
T2DBC 6496:314.872 JLINK_SetResetType(JLINKARM_CM3_RESET_TYPE_NORMAL)
T2DBC 6496:314.908 - 0.053ms returns JLINKARM_CM3_RESET_TYPE_NORMAL
T2DBC 6496:314.948 JLINK_Reset()
T2DBC 6496:315.005   CPU_WriteMem(4 bytes @ 0xE000EDF0)
T2DBC 6496:315.731   CPU_WriteMem(4 bytes @ 0xE000EDFC)
T2DBC 6496:316.648   Reset: Halt core after reset via DEMCR.VC_CORERESET.
T2DBC 6496:317.676   Reset: Reset device via AIRCR.SYSRESETREQ.
T2DBC 6496:317.748   CPU_WriteMem(4 bytes @ 0xE000ED0C)
T2DBC 6496:371.211   CPU_ReadMem(4 bytes @ 0xE000EDF0)
T2DBC 6496:371.973   CPU_ReadMem(4 bytes @ 0xE000EDF0)
T2DBC 6496:372.661   CPU_WriteMem(4 bytes @ 0xE000EDF0)
T2DBC 6496:373.350   CPU_WriteMem(4 bytes @ 0xE000EDFC)
T2DBC 6496:380.046   CPU_ReadMem(4 bytes @ 0xE000EDF0)
T2DBC 6496:383.467   CPU_WriteMem(4 bytes @ 0xE0002000)
T2DBC 6496:384.190   CPU_ReadMem(4 bytes @ 0xE000EDFC)
T2DBC 6496:384.870   CPU_ReadMem(4 bytes @ 0xE0001000)
T2DBC 6496:385.544 - 70.627ms
T2DBC 6496:385.758 JLINK_HasError()
T2DBC 6496:385.817 JLINK_ReadReg(R15 (PC))
T2DBC 6496:385.857 - 0.057ms returns 0x0800025C
T2DBC 6496:385.903 JLINK_ReadReg(XPSR)
T2DBC 6496:385.944 - 0.057ms returns 0x01000000
T2DBC 6496:386.813 JLINK_ReadMemEx(0x0800025C, 0x3C Bytes, Flags = 0x02000000)
T2DBC 6496:386.876   CPU_ReadMem(128 bytes @ 0x08000240)
T2DBC 6496:388.080    -- Updating C cache (128 bytes @ 0x08000240)
T2DBC 6496:388.146    -- Read from C cache (60 bytes @ 0x0800025C)
T2DBC 6496:388.198   Data:  06 48 80 47 06 48 00 47 FE E7 FE E7 FE E7 FE E7 ...
T2DBC 6496:388.246 - 1.450ms returns 60 (0x3C)
T2DBC 6496:388.286 JLINK_ReadMemEx(0x0800025C, 0x2 Bytes, Flags = 0x02000000)
T2DBC 6496:388.323    -- Read from C cache (2 bytes @ 0x0800025C)
T2DBC 6496:388.371   Data:  06 48
T2DBC 6496:388.419 - 0.149ms returns 2 (0x2)
T2DBC 6496:388.577 JLINK_ReadMemEx(0x0800025E, 0x2 Bytes, Flags = 0x02000000)
T2DBC 6496:388.613    -- Read from C cache (2 bytes @ 0x0800025E)
T2DBC 6496:388.662   Data:  80 47
T2DBC 6496:388.710 - 0.150ms returns 2 (0x2)
T2DBC 6498:910.051 JLINK_ReadMemEx(0x0800025E, 0x2 Bytes, Flags = 0x02000000)
T2DBC 6498:910.126    -- Read from C cache (2 bytes @ 0x0800025E)
T2DBC 6498:910.177   Data:  80 47
T2DBC 6498:910.224 - 0.188ms returns 2 (0x2)
T2DBC 6498:910.260 JLINK_ReadMemEx(0x08000260, 0x3C Bytes, Flags = 0x02000000)
T2DBC 6498:910.293    -- Read from C cache (60 bytes @ 0x08000260)
T2DBC 6498:910.340   Data:  06 48 00 47 FE E7 FE E7 FE E7 FE E7 FE E7 FE E7 ...
T2DBC 6498:910.385 - 0.140ms returns 60 (0x3C)
T2DBC 6498:910.419 JLINK_ReadMemEx(0x08000260, 0x2 Bytes, Flags = 0x02000000)
T2DBC 6498:910.451    -- Read from C cache (2 bytes @ 0x08000260)
T2DBC 6498:910.497   Data:  06 48
T2DBC 6498:910.542 - 0.138ms returns 2 (0x2)
T2DBC 6499:485.637 JLINK_HasError()
T2DBC 6499:485.714 JLINK_ReadReg(R0)
T2DBC 6499:486.345 - 0.662ms returns 0x00000000
T2DBC 6499:486.402 JLINK_ReadReg(R1)
T2DBC 6499:486.436 - 0.048ms returns 0x00000000
T2DBC 6499:486.474 JLINK_ReadReg(R2)
T2DBC 6499:486.505 - 0.046ms returns 0x00000000
T2DBC 6499:486.539 JLINK_ReadReg(R3)
T2DBC 6499:486.570 - 0.046ms returns 0x00000000
T2DBC 6499:486.604 JLINK_ReadReg(R4)
T2DBC 6499:486.635 - 0.046ms returns 0x00000000
T2DBC 6499:486.670 JLINK_ReadReg(R5)
T2DBC 6499:486.701 - 0.046ms returns 0x00000000
T2DBC 6499:486.734 JLINK_ReadReg(R6)
T2DBC 6499:486.765 - 0.046ms returns 0x00000000
T2DBC 6499:486.800 JLINK_ReadReg(R7)
T2DBC 6499:486.830 - 0.046ms returns 0x00000000
T2DBC 6499:486.865 JLINK_ReadReg(R8)
T2DBC 6499:486.896 - 0.046ms returns 0x00000000
T2DBC 6499:486.930 JLINK_ReadReg(R9)
T2DBC 6499:486.961 - 0.046ms returns 0x00000000
T2DBC 6499:486.996 JLINK_ReadReg(R10)
T2DBC 6499:487.027 - 0.046ms returns 0x00000000
T2DBC 6499:487.061 JLINK_ReadReg(R11)
T2DBC 6499:487.092 - 0.046ms returns 0x00000000
T2DBC 6499:487.126 JLINK_ReadReg(R12)
T2DBC 6499:487.157 - 0.046ms returns 0x00000000
T2DBC 6499:487.191 JLINK_ReadReg(R13 (SP))
T2DBC 6499:487.223 - 0.046ms returns 0x20004558
T2DBC 6499:487.257 JLINK_ReadReg(R14)
T2DBC 6499:487.288 - 0.046ms returns 0xFFFFFFFF
T2DBC 6499:487.327 JLINK_ReadReg(R15 (PC))
T2DBC 6499:487.363 - 0.054ms returns 0x0800025C
T2DBC 6499:487.405 JLINK_ReadReg(XPSR)
T2DBC 6499:487.441 - 0.054ms returns 0x01000000
T2DBC 6499:487.483 JLINK_ReadReg(MSP)
T2DBC 6499:487.521 - 0.056ms returns 0x20004558
T2DBC 6499:487.569 JLINK_ReadReg(PSP)
T2DBC 6499:487.618 - 0.067ms returns 0x00000000
T2DBC 6499:487.660 JLINK_ReadReg(CFBP)
T2DBC 6499:487.697 - 0.055ms returns 0x00000000
T2DBC 6499:487.739 JLINK_ReadReg(FPSCR)
T2DBC 6499:491.368 - 3.681ms returns 0x00000000
T2DBC 6499:491.451 JLINK_ReadReg(FPS0)
T2DBC 6499:491.488 - 0.053ms returns 0x00000000
T2DBC 6499:491.524 JLINK_ReadReg(FPS1)
T2DBC 6499:491.555 - 0.046ms returns 0x00000000
T2DBC 6499:491.589 JLINK_ReadReg(FPS2)
T2DBC 6499:491.620 - 0.046ms returns 0x00000000
T2DBC 6499:491.656 JLINK_ReadReg(FPS3)
T2DBC 6499:491.687 - 0.047ms returns 0x00000000
T2DBC 6499:491.721 JLINK_ReadReg(FPS4)
T2DBC 6499:491.753 - 0.046ms returns 0x00000000
T2DBC 6499:491.787 JLINK_ReadReg(FPS5)
T2DBC 6499:491.818 - 0.046ms returns 0x00000000
T2DBC 6499:491.965 JLINK_ReadReg(FPS6)
T2DBC 6499:492.004 - 0.055ms returns 0x00000000
T2DBC 6499:492.040 JLINK_ReadReg(FPS7)
T2DBC 6499:492.071 - 0.046ms returns 0x00000000
T2DBC 6499:492.105 JLINK_ReadReg(FPS8)
T2DBC 6499:492.136 - 0.046ms returns 0x00000000
T2DBC 6499:492.171 JLINK_ReadReg(FPS9)
T2DBC 6499:492.202 - 0.046ms returns 0x00000000
T2DBC 6499:492.237 JLINK_ReadReg(FPS10)
T2DBC 6499:492.268 - 0.046ms returns 0x00000000
T2DBC 6499:492.303 JLINK_ReadReg(FPS11)
T2DBC 6499:492.334 - 0.046ms returns 0x00000000
T2DBC 6499:492.368 JLINK_ReadReg(FPS12)
T2DBC 6499:492.399 - 0.048ms returns 0x00000000
T2DBC 6499:492.437 JLINK_ReadReg(FPS13)
T2DBC 6499:492.468 - 0.046ms returns 0x00000000
T2DBC 6499:492.503 JLINK_ReadReg(FPS14)
T2DBC 6499:492.534 - 0.046ms returns 0x00000000
T2DBC 6499:492.568 JLINK_ReadReg(FPS15)
T2DBC 6499:492.599 - 0.046ms returns 0x00000000
T2DBC 6499:492.634 JLINK_ReadReg(FPS16)
T2DBC 6499:492.665 - 0.046ms returns 0x00000000
T2DBC 6499:492.699 JLINK_ReadReg(FPS17)
T2DBC 6499:492.730 - 0.046ms returns 0x00000000
T2DBC 6499:492.765 JLINK_ReadReg(FPS18)
T2DBC 6499:492.796 - 0.046ms returns 0x00000000
T2DBC 6499:492.831 JLINK_ReadReg(FPS19)
T2DBC 6499:492.862 - 0.046ms returns 0x00000000
T2DBC 6499:492.896 JLINK_ReadReg(FPS20)
T2DBC 6499:492.927 - 0.046ms returns 0x00000000
T2DBC 6499:492.962 JLINK_ReadReg(FPS21)
T2DBC 6499:492.993 - 0.046ms returns 0x00000000
T2DBC 6499:493.027 JLINK_ReadReg(FPS22)
T2DBC 6499:493.058 - 0.046ms returns 0x00000000
T2DBC 6499:493.093 JLINK_ReadReg(FPS23)
T2DBC 6499:493.124 - 0.046ms returns 0x00000000
T2DBC 6499:493.159 JLINK_ReadReg(FPS24)
T2DBC 6499:493.190 - 0.046ms returns 0x00000000
T2DBC 6499:493.224 JLINK_ReadReg(FPS25)
T2DBC 6499:493.255 - 0.046ms returns 0x00000000
T2DBC 6499:493.290 JLINK_ReadReg(FPS26)
T2DBC 6499:493.321 - 0.046ms returns 0x00000000
T2DBC 6499:493.355 JLINK_ReadReg(FPS27)
T2DBC 6499:493.386 - 0.047ms returns 0x00000000
T2DBC 6499:493.422 JLINK_ReadReg(FPS28)
T2DBC 6499:493.453 - 0.046ms returns 0x00000000
T2DBC 6499:493.488 JLINK_ReadReg(FPS29)
T2DBC 6499:493.519 - 0.046ms returns 0x00000000
T2DBC 6499:493.553 JLINK_ReadReg(FPS30)
T2DBC 6499:493.585 - 0.046ms returns 0x00000000
T2DBC 6499:493.619 JLINK_ReadReg(FPS31)
T2DBC 6499:493.650 - 0.046ms returns 0x00000000
T2DBC 6499:493.784 JLINK_ReadMemEx(0x20000028, 0x1 Bytes, Flags = 0x02000000)
T2DBC 6499:493.850   CPU_ReadMem(64 bytes @ 0x20000000)
T2DBC 6499:494.693    -- Updating C cache (64 bytes @ 0x20000000)
T2DBC 6499:494.755    -- Read from C cache (1 bytes @ 0x20000028)
T2DBC 6499:494.803   Data:  00
T2DBC 6499:494.850 - 1.081ms returns 1 (0x1)
T2DBC 6499:507.679 JLINK_ReadMemEx(0x20000028, 0x1 Bytes, Flags = 0x02000000)
T2DBC 6499:507.757    -- Read from C cache (1 bytes @ 0x20000028)
T2DBC 6499:507.805   Data:  00
T2DBC 6499:507.851 - 0.188ms returns 1 (0x1)
T2DBC 6499:507.920 JLINK_ReadMemEx(0x20000028, 0x1 Bytes, Flags = 0x02000000)
T2DBC 6499:507.955    -- Read from C cache (1 bytes @ 0x20000028)
T2DBC 6499:508.000   Data:  00
T2DBC 6499:508.045 - 0.139ms returns 1 (0x1)
T2DBC 6499:517.567 JLINK_ReadMemEx(0x20000027, 0x1 Bytes, Flags = 0x02000000)
T2DBC 6499:517.645    -- Read from C cache (1 bytes @ 0x20000027)
T2DBC 6499:517.694   Data:  00
T2DBC 6499:517.741 - 0.189ms returns 1 (0x1)
T2DBC 6499:518.134 JLINK_ReadMemEx(0x20000027, 0x1 Bytes, Flags = 0x02000000)
T2DBC 6499:518.171    -- Read from C cache (1 bytes @ 0x20000027)
T2DBC 6499:518.216   Data:  00
T2DBC 6499:518.261 - 0.142ms returns 1 (0x1)
T2DBC 6499:518.332 JLINK_ReadMemEx(0x20000027, 0x1 Bytes, Flags = 0x02000000)
T2DBC 6499:518.366    -- Read from C cache (1 bytes @ 0x20000027)
T2DBC 6499:518.413   Data:  00
T2DBC 6499:518.458 - 0.141ms returns 1 (0x1)
T2DBC 6499:527.534 JLINK_ReadMemEx(0x20000029, 0x1 Bytes, Flags = 0x02000000)
T2DBC 6499:527.613    -- Read from C cache (1 bytes @ 0x20000029)
T2DBC 6499:527.660   Data:  00
T2DBC 6499:527.707 - 0.189ms returns 1 (0x1)
T2DBC 6499:528.115 JLINK_ReadMemEx(0x20000029, 0x1 Bytes, Flags = 0x02000000)
T2DBC 6499:528.160    -- Read from C cache (1 bytes @ 0x20000029)
T2DBC 6499:528.211   Data:  00
T2DBC 6499:528.256 - 0.156ms returns 1 (0x1)
T2DBC 6499:528.320 JLINK_ReadMemEx(0x20000029, 0x1 Bytes, Flags = 0x02000000)
T2DBC 6499:528.354    -- Read from C cache (1 bytes @ 0x20000029)
T2DBC 6499:528.400   Data:  00
T2DBC 6499:528.446 - 0.142ms returns 1 (0x1)
T2DBC 6499:539.032 JLINK_ReadMemEx(0x20000010, 0x1 Bytes, Flags = 0x02000000)
T2DBC 6499:539.111    -- Read from C cache (1 bytes @ 0x20000010)
T2DBC 6499:539.159   Data:  00
T2DBC 6499:539.206 - 0.190ms returns 1 (0x1)
T2DBC 6499:539.586 JLINK_ReadMemEx(0x20000010, 0x1 Bytes, Flags = 0x02000000)
T2DBC 6499:539.624    -- Read from C cache (1 bytes @ 0x20000010)
T2DBC 6499:539.670   Data:  00
T2DBC 6499:539.716 - 0.145ms returns 1 (0x1)
T2DBC 6499:539.780 JLINK_ReadMemEx(0x20000010, 0x1 Bytes, Flags = 0x02000000)
T2DBC 6499:539.814    -- Read from C cache (1 bytes @ 0x20000010)
T2DBC 6499:539.860   Data:  00
T2DBC 6499:539.906 - 0.142ms returns 1 (0x1)
T2DBC 6499:551.570 JLINK_ReadMemEx(0x2000002B, 0x1 Bytes, Flags = 0x02000000)
T2DBC 6499:551.650    -- Read from C cache (1 bytes @ 0x2000002B)
T2DBC 6499:551.697   Data:  01
T2DBC 6499:551.743 - 0.188ms returns 1 (0x1)
T2DBC 6499:552.146 JLINK_ReadMemEx(0x2000002B, 0x1 Bytes, Flags = 0x02000000)
T2DBC 6499:552.183    -- Read from C cache (1 bytes @ 0x2000002B)
T2DBC 6499:552.228   Data:  01
T2DBC 6499:552.273 - 0.141ms returns 1 (0x1)
T2DBC 6499:552.339 JLINK_ReadMemEx(0x2000002B, 0x1 Bytes, Flags = 0x02000000)
T2DBC 6499:552.373    -- Read from C cache (1 bytes @ 0x2000002B)
T2DBC 6499:552.421   Data:  01
T2DBC 6499:552.467 - 0.142ms returns 1 (0x1)
T2DBC 6499:563.856 JLINK_ReadMemEx(0x20000464, 0x1 Bytes, Flags = 0x02000000)
T2DBC 6499:563.961   CPU_ReadMem(64 bytes @ 0x20000440)
T2DBC 6499:564.821    -- Updating C cache (64 bytes @ 0x20000440)
T2DBC 6499:564.898    -- Read from C cache (1 bytes @ 0x20000464)
T2DBC 6499:564.955   Data:  01
T2DBC 6499:565.002 - 1.162ms returns 1 (0x1)
T2DBC 6499:565.715 JLINK_ReadMemEx(0x20000464, 0x1 Bytes, Flags = 0x02000000)
T2DBC 6499:565.761    -- Read from C cache (1 bytes @ 0x20000464)
T2DBC 6499:565.807   Data:  01
T2DBC 6499:565.853 - 0.153ms returns 1 (0x1)
T2DBC 6499:565.926 JLINK_ReadMemEx(0x20000464, 0x1 Bytes, Flags = 0x02000000)
T2DBC 6499:565.960    -- Read from C cache (1 bytes @ 0x20000464)
T2DBC 6499:566.006   Data:  01
T2DBC 6499:566.051 - 0.141ms returns 1 (0x1)
T2DBC 6499:578.525 JLINK_ReadMemEx(0x20000450, 0x14 Bytes, Flags = 0x02000000)
T2DBC 6499:578.651    -- Read from C cache (20 bytes @ 0x20000450)
T2DBC 6499:578.732   Data:  00 00 00 00 00 00 00 00 00 00 00 00 00 00 00 00 ...
T2DBC 6499:578.788 - 0.282ms returns 20 (0x14)
T2DBC 6499:592.372 JLINK_ReadMemEx(0x20000024, 0x1 Bytes, Flags = 0x02000000)
T2DBC 6499:592.522    -- Read from C cache (1 bytes @ 0x20000024)
T2DBC 6499:592.584   Data:  01
T2DBC 6499:592.640 - 0.287ms returns 1 (0x1)
T2DBC 6499:593.128 JLINK_ReadMemEx(0x20000024, 0x1 Bytes, Flags = 0x02000000)
T2DBC 6499:593.183    -- Read from C cache (1 bytes @ 0x20000024)
T2DBC 6499:593.231   Data:  01
T2DBC 6499:593.277 - 0.164ms returns 1 (0x1)
T2DBC 6499:593.348 JLINK_ReadMemEx(0x20000024, 0x1 Bytes, Flags = 0x02000000)
T2DBC 6499:593.383    -- Read from C cache (1 bytes @ 0x20000024)
T2DBC 6499:593.430   Data:  01
T2DBC 6499:593.497 - 0.166ms returns 1 (0x1)
T3C3C 6499:693.816 JLINK_ReadMemEx(0x0800025C, 0x2 Bytes, Flags = 0x02000000)
T3C3C 6499:693.892    -- Read from C cache (2 bytes @ 0x0800025C)
T3C3C 6499:693.940   Data:  06 48
T3C3C 6499:693.985 - 0.184ms returns 2 (0x2)
T3C3C 6499:694.028 JLINK_HasError()
T3C3C 6499:694.099 JLINK_SetBPEx(Addr = 0x08002B18, Type = 0xFFFFFFF2)
T3C3C 6499:694.150 - 0.081ms returns 0x00000001
T3C3C 6499:694.213 JLINK_HasError()
T3C3C 6499:694.272 JLINK_HasError()
T3C3C 6499:694.314 JLINK_Go()
T3C3C 6499:694.407   CPU_WriteMem(4 bytes @ 0xE0002000)
T3C3C 6499:695.140   CPU_ReadMem(4 bytes @ 0xE0001000)
T3C3C 6499:695.801   CPU_WriteMem(4 bytes @ 0xE0002008)
T3C3C 6499:695.886   CPU_WriteMem(4 bytes @ 0xE000200C)
T3C3C 6499:695.976   CPU_WriteMem(4 bytes @ 0xE0002010)
T3C3C 6499:696.057   CPU_WriteMem(4 bytes @ 0xE0002014)
T3C3C 6499:696.113   CPU_WriteMem(4 bytes @ 0xE0002018)
T3C3C 6499:696.170   CPU_WriteMem(4 bytes @ 0xE000201C)
T3C3C 6499:697.508   CPU_WriteMem(4 bytes @ 0xE0001004)
T3C3C 6499:698.715 - 4.449ms
T3C3C 6499:799.106 JLINK_HasError()
T3C3C 6499:799.195 JLINK_IsHalted()
T3C3C 6499:801.778 - 2.605ms returns TRUE
T3C3C 6499:801.816 JLINK_HasError()
T3C3C 6499:801.836 JLINK_Halt()
T3C3C 6499:801.853 - 0.026ms returns 0x00
T3C3C 6499:801.872 JLINK_IsHalted()
T3C3C 6499:801.889 - 0.025ms returns TRUE
T3C3C 6499:801.908 JLINK_IsHalted()
T3C3C 6499:801.925 - 0.027ms returns TRUE
T3C3C 6499:801.946 JLINK_IsHalted()
T3C3C 6499:801.963 - 0.026ms returns TRUE
T3C3C 6499:801.982 JLINK_HasError()
T3C3C 6499:802.012 JLINK_ReadReg(R15 (PC))
T3C3C 6499:802.047 - 0.045ms returns 0x08002B18
T3C3C 6499:802.070 JLINK_ReadReg(XPSR)
T3C3C 6499:802.093 - 0.033ms returns 0x61000000
T3C3C 6499:802.122 JLINK_HasError()
T3C3C 6499:802.152 JLINK_ClrBPEx(BPHandle = 0x00000001)
T3C3C 6499:802.176 - 0.034ms returns 0x00
T3C3C 6499:802.200 JLINK_HasError()
T3C3C 6499:802.225 JLINK_HasError()
T3C3C 6499:802.248 JLINK_ReadMemU32(0xE000ED30, 0x1 Items)
T3C3C 6499:802.280   CPU_ReadMem(4 bytes @ 0xE000ED30)
T3C3C 6499:802.806   Data:  02 00 00 00
T3C3C 6499:802.842 - 0.602ms returns 1 (0x1)
T3C3C 6499:802.864 JLINK_ReadMemU32(0xE0001028, 0x1 Items)
T3C3C 6499:802.889   CPU_ReadMem(4 bytes @ 0xE0001028)
T3C3C 6499:803.424   Data:  00 00 00 00
T3C3C 6499:803.461   Debug reg: DWT_FUNC[0]
T3C3C 6499:803.486 - 0.630ms returns 1 (0x1)
T3C3C 6499:803.508 JLINK_ReadMemU32(0xE0001038, 0x1 Items)
T3C3C 6499:803.532   CPU_ReadMem(4 bytes @ 0xE0001038)
T3C3C 6499:804.068   Data:  00 02 00 00
T3C3C 6499:804.104   Debug reg: DWT_FUNC[1]
T3C3C 6499:804.129 - 0.631ms returns 1 (0x1)
T3C3C 6499:804.152 JLINK_ReadMemU32(0xE0001048, 0x1 Items)
T3C3C 6499:804.177   CPU_ReadMem(4 bytes @ 0xE0001048)
T3C3C 6499:804.699   Data:  00 00 00 00
T3C3C 6499:804.732   Debug reg: DWT_FUNC[2]
T3C3C 6499:804.759 - 0.616ms returns 1 (0x1)
T3C3C 6499:804.780 JLINK_ReadMemU32(0xE0001058, 0x1 Items)
T3C3C 6499:804.803   CPU_ReadMem(4 bytes @ 0xE0001058)
T3C3C 6499:805.357   Data:  00 00 00 00
T3C3C 6499:805.391   Debug reg: DWT_FUNC[3]
T3C3C 6499:805.416 - 0.643ms returns 1 (0x1)
T3C3C 6499:805.474 JLINK_HasError()
T3C3C 6499:805.495 JLINK_ReadReg(R0)
T3C3C 6499:805.537 - 0.051ms returns 0x08002B19
T3C3C 6499:805.558 JLINK_ReadReg(R1)
T3C3C 6499:805.576 - 0.032ms returns 0x20004558
T3C3C 6499:805.607 JLINK_ReadReg(R2)
T3C3C 6499:805.626 - 0.028ms returns 0x00000000
T3C3C 6499:805.645 JLINK_ReadReg(R3)
T3C3C 6499:805.663 - 0.026ms returns 0x080029DD
T3C3C 6499:805.681 JLINK_ReadReg(R4)
T3C3C 6499:805.699 - 0.025ms returns 0x08003954
T3C3C 6499:805.717 JLINK_ReadReg(R5)
T3C3C 6499:805.734 - 0.032ms returns 0x08003954
T3C3C 6499:805.765 JLINK_ReadReg(R6)
T3C3C 6499:805.785 - 0.028ms returns 0x00000000
T3C3C 6499:805.803 JLINK_ReadReg(R7)
T3C3C 6499:805.820 - 0.025ms returns 0x00000000
T3C3C 6499:805.839 JLINK_ReadReg(R8)
T3C3C 6499:805.856 - 0.025ms returns 0x00000000
T3C3C 6499:805.874 JLINK_ReadReg(R9)
T3C3C 6499:805.892 - 0.025ms returns 0x00000000
T3C3C 6499:805.910 JLINK_ReadReg(R10)
T3C3C 6499:805.927 - 0.025ms returns 0x00000000
T3C3C 6499:805.946 JLINK_ReadReg(R11)
T3C3C 6499:805.963 - 0.026ms returns 0x00000000
T3C3C 6499:805.982 JLINK_ReadReg(R12)
T3C3C 6499:805.999 - 0.026ms returns 0x00000000
T3C3C 6499:806.017 JLINK_ReadReg(R13 (SP))
T3C3C 6499:806.037 - 0.028ms returns 0x20004558
T3C3C 6499:806.056 JLINK_ReadReg(R14)
T3C3C 6499:806.073 - 0.026ms returns 0x08000385
T3C3C 6499:806.091 JLINK_ReadReg(R15 (PC))
T3C3C 6499:806.109 - 0.026ms returns 0x08002B18
T3C3C 6499:806.128 JLINK_ReadReg(XPSR)
T3C3C 6499:806.145 - 0.026ms returns 0x61000000
T3C3C 6499:806.164 JLINK_ReadReg(MSP)
T3C3C 6499:806.181 - 0.030ms returns 0x20004558
T3C3C 6499:806.207 JLINK_ReadReg(PSP)
T3C3C 6499:806.225 - 0.026ms returns 0x00000000
T3C3C 6499:806.244 JLINK_ReadReg(CFBP)
T3C3C 6499:806.261 - 0.026ms returns 0x00000000
T3C3C 6499:806.280 JLINK_ReadReg(FPSCR)
T3C3C 6499:809.625 - 3.368ms returns 0x00000000
T3C3C 6499:809.663 JLINK_ReadReg(FPS0)
T3C3C 6499:809.688 - 0.040ms returns 0x00000000
T3C3C 6499:809.716 JLINK_ReadReg(FPS1)
T3C3C 6499:809.736 - 0.029ms returns 0x00000000
T3C3C 6499:809.755 JLINK_ReadReg(FPS2)
T3C3C 6499:809.773 - 0.026ms returns 0x00000000
T3C3C 6499:809.791 JLINK_ReadReg(FPS3)
T3C3C 6499:809.809 - 0.026ms returns 0x00000000
T3C3C 6499:809.828 JLINK_ReadReg(FPS4)
T3C3C 6499:809.845 - 0.026ms returns 0x00000000
T3C3C 6499:809.864 JLINK_ReadReg(FPS5)
T3C3C 6499:809.881 - 0.026ms returns 0x00000000
T3C3C 6499:809.900 JLINK_ReadReg(FPS6)
T3C3C 6499:809.918 - 0.026ms returns 0x00000000
T3C3C 6499:809.936 JLINK_ReadReg(FPS7)
T3C3C 6499:809.954 - 0.026ms returns 0x00000000
T3C3C 6499:809.972 JLINK_ReadReg(FPS8)
T3C3C 6499:809.990 - 0.026ms returns 0x00000000
T3C3C 6499:810.009 JLINK_ReadReg(FPS9)
T3C3C 6499:810.026 - 0.030ms returns 0x00000000
T3C3C 6499:810.049 JLINK_ReadReg(FPS10)
T3C3C 6499:810.070 - 0.037ms returns 0x00000000
T3C3C 6499:810.100 JLINK_ReadReg(FPS11)
T3C3C 6499:810.128 - 0.037ms returns 0x00000000
T3C3C 6499:810.149 JLINK_ReadReg(FPS12)
T3C3C 6499:810.166 - 0.026ms returns 0x00000000
T3C3C 6499:810.185 JLINK_ReadReg(FPS13)
T3C3C 6499:810.202 - 0.031ms returns 0x00000000
T3C3C 6499:810.233 JLINK_ReadReg(FPS14)
T3C3C 6499:810.260 - 0.038ms returns 0x00000000
T3C3C 6499:810.283 JLINK_ReadReg(FPS15)
T3C3C 6499:810.300 - 0.026ms returns 0x00000000
T3C3C 6499:810.319 JLINK_ReadReg(FPS16)
T3C3C 6499:810.337 - 0.033ms returns 0x00000000
T3C3C 6499:810.366 JLINK_ReadReg(FPS17)
T3C3C 6499:810.385 - 0.028ms returns 0x00000000
T3C3C 6499:810.404 JLINK_ReadReg(FPS18)
T3C3C 6499:810.421 - 0.025ms returns 0x00000000
T3C3C 6499:810.440 JLINK_ReadReg(FPS19)
T3C3C 6499:810.458 - 0.025ms returns 0x00000000
T3C3C 6499:810.476 JLINK_ReadReg(FPS20)
T3C3C 6499:810.493 - 0.025ms returns 0x00000000
T3C3C 6499:810.512 JLINK_ReadReg(FPS21)
T3C3C 6499:810.529 - 0.026ms returns 0x00000000
T3C3C 6499:810.547 JLINK_ReadReg(FPS22)
T3C3C 6499:810.565 - 0.025ms returns 0x00000000
T3C3C 6499:810.584 JLINK_ReadReg(FPS23)
T3C3C 6499:810.601 - 0.025ms returns 0x00000000
T3C3C 6499:810.620 JLINK_ReadReg(FPS24)
T3C3C 6499:810.637 - 0.026ms returns 0x00000000
T3C3C 6499:810.656 JLINK_ReadReg(FPS25)
T3C3C 6499:810.673 - 0.025ms returns 0x00000000
T3C3C 6499:810.691 JLINK_ReadReg(FPS26)
T3C3C 6499:810.709 - 0.026ms returns 0x00000000
T3C3C 6499:810.727 JLINK_ReadReg(FPS27)
T3C3C 6499:810.745 - 0.025ms returns 0x00000000
T3C3C 6499:810.763 JLINK_ReadReg(FPS28)
T3C3C 6499:810.780 - 0.025ms returns 0x00000000
T3C3C 6499:810.799 JLINK_ReadReg(FPS29)
T3C3C 6499:810.816 - 0.025ms returns 0x00000000
T3C3C 6499:810.834 JLINK_ReadReg(FPS30)
T3C3C 6499:810.851 - 0.026ms returns 0x00000000
T3C3C 6499:810.870 JLINK_ReadReg(FPS31)
T3C3C 6499:810.887 - 0.026ms returns 0x00000000
T2DBC 6499:812.493 JLINK_HasError()
T2DBC 6499:812.541 JLINK_ReadMemU32(0xE0001004, 0x1 Items)
T2DBC 6499:812.577   CPU_ReadMem(4 bytes @ 0xE0001004)
T2DBC 6499:813.091   Data:  B3 68 00 00
T2DBC 6499:813.131   Debug reg: DWT_CYCCNT
T2DBC 6499:813.156 - 0.623ms returns 1 (0x1)
T2DBC 6499:813.889 JLINK_ReadMemEx(0x20000028, 0x1 Bytes, Flags = 0x02000000)
T2DBC 6499:813.935   CPU_ReadMem(64 bytes @ 0x20000000)
T2DBC 6499:814.702    -- Updating C cache (64 bytes @ 0x20000000)
T2DBC 6499:814.741    -- Read from C cache (1 bytes @ 0x20000028)
T2DBC 6499:814.767   Data:  00
T2DBC 6499:814.793 - 0.913ms returns 1 (0x1)
T2DBC 6499:814.850 JLINK_ReadMemEx(0x20000027, 0x1 Bytes, Flags = 0x02000000)
T2DBC 6499:814.888    -- Read from C cache (1 bytes @ 0x20000027)
T2DBC 6499:814.920   Data:  00
T2DBC 6499:814.955 - 0.114ms returns 1 (0x1)
T2DBC 6499:814.986 JLINK_ReadMemEx(0x20000029, 0x1 Bytes, Flags = 0x02000000)
T2DBC 6499:815.086    -- Read from C cache (1 bytes @ 0x20000029)
T2DBC 6499:815.131   Data:  00
T2DBC 6499:815.159 - 0.181ms returns 1 (0x1)
T2DBC 6499:815.192 JLINK_ReadMemEx(0x20000010, 0x1 Bytes, Flags = 0x02000000)
T2DBC 6499:815.224    -- Read from C cache (1 bytes @ 0x20000010)
T2DBC 6499:815.251   Data:  00
T2DBC 6499:815.276 - 0.093ms returns 1 (0x1)
T2DBC 6499:815.306 JLINK_ReadMemEx(0x2000002B, 0x1 Bytes, Flags = 0x02000000)
T2DBC 6499:815.325    -- Read from C cache (1 bytes @ 0x2000002B)
T2DBC 6499:815.350   Data:  00
T2DBC 6499:815.375 - 0.078ms returns 1 (0x1)
T2DBC 6499:815.897 JLINK_ReadMemEx(0x20000464, 0x1 Bytes, Flags = 0x02000000)
T2DBC 6499:815.935   CPU_ReadMem(64 bytes @ 0x20000440)
T2DBC 6499:816.723    -- Updating C cache (64 bytes @ 0x20000440)
T2DBC 6499:816.763    -- Read from C cache (1 bytes @ 0x20000464)
T2DBC 6499:816.789   Data:  00
T2DBC 6499:816.815 - 0.927ms returns 1 (0x1)
T2DBC 6499:817.307 JLINK_ReadMemEx(0x20000450, 0x14 Bytes, Flags = 0x02000000)
T2DBC 6499:817.343    -- Read from C cache (20 bytes @ 0x20000450)
T2DBC 6499:817.370   Data:  00 00 00 00 00 00 00 00 00 00 00 00 00 00 00 00 ...
T2DBC 6499:817.396 - 0.097ms returns 20 (0x14)
T2DBC 6499:817.419 JLINK_ReadMemEx(0x20000024, 0x1 Bytes, Flags = 0x02000000)
T2DBC 6499:817.447    -- Read from C cache (1 bytes @ 0x20000024)
T2DBC 6499:817.478   Data:  00
T2DBC 6499:817.504 - 0.094ms returns 1 (0x1)
T2DBC 6510:717.369 JLINK_ReadMemEx(0x2000002B, 0x1 Bytes, Flags = 0x02000000)
T2DBC 6510:717.488    -- Read from C cache (1 bytes @ 0x2000002B)
T2DBC 6510:717.540   Data:  00
T2DBC 6510:717.591 - 0.240ms returns 1 (0x1)
T3C3C 6518:267.520 JLINK_ReadMemEx(0x08002B18, 0x2 Bytes, Flags = 0x02000000)
T3C3C 6518:267.617   CPU_ReadMem(64 bytes @ 0x08002B00)
T3C3C 6518:268.483    -- Updating C cache (64 bytes @ 0x08002B00)
T3C3C 6518:268.566    -- Read from C cache (2 bytes @ 0x08002B18)
T3C3C 6518:268.621   Data:  FE F7
T3C3C 6518:268.674 - 1.172ms returns 2 (0x2)
T3C3C 6518:268.722 JLINK_HasError()
T3C3C 6518:268.762 JLINK_SetBPEx(Addr = 0x0800338C, Type = 0xFFFFFFF2)
T3C3C 6518:268.804 - 0.060ms returns 0x00000002
T3C3C 6518:268.843 JLINK_HasError()
T3C3C 6518:268.880 JLINK_SetBPEx(Addr = 0x0800339C, Type = 0xFFFFFFF2)
T3C3C 6518:268.917 - 0.054ms returns 0x00000003
T3C3C 6518:268.954 JLINK_HasError()
T3C3C 6518:268.991 JLINK_SetBPEx(Addr = 0x080033A6, Type = 0xFFFFFFF2)
T3C3C 6518:269.028 - 0.054ms returns 0x00000004
T3C3C 6518:269.065 JLINK_HasError()
T3C3C 6518:269.102 JLINK_SetBPEx(Addr = 0x080033B0, Type = 0xFFFFFFF2)
T3C3C 6518:269.139 - 0.053ms returns 0x00000005
T3C3C 6518:269.176 JLINK_HasError()
T3C3C 6518:269.213 JLINK_HasError()
T3C3C 6518:269.244 JLINK_Go()
T3C3C 6518:269.925   CPU_WriteMem(4 bytes @ 0xE0002000)
T3C3C 6518:270.561   CPU_WriteMem(4 bytes @ 0xE0002000)
T3C3C 6518:271.177   CPU_WriteMem(4 bytes @ 0xE0002000)
T3C3C 6518:271.803   CPU_WriteMem(4 bytes @ 0xE0002000)
T3C3C 6518:272.385   CPU_ReadMem(4 bytes @ 0xE0001000)
T3C3C 6518:273.433   CPU_WriteMem(4 bytes @ 0xE0002008)
T3C3C 6518:273.528   CPU_WriteMem(4 bytes @ 0xE000200C)
T3C3C 6518:273.558   CPU_WriteMem(4 bytes @ 0xE0002010)
T3C3C 6518:273.588   CPU_WriteMem(4 bytes @ 0xE0002014)
T3C3C 6518:275.412 - 6.193ms
T3C3C 6518:376.404 JLINK_HasError()
T3C3C 6518:376.507 JLINK_IsHalted()
T3C3C 6518:377.209 - 0.734ms returns FALSE
T3C3C 6518:477.680 JLINK_HasError()
T3C3C 6518:477.793 JLINK_IsHalted()
T3C3C 6518:478.515 - 0.754ms returns FALSE
T3C3C 6518:578.809 JLINK_HasError()
T3C3C 6518:578.920 JLINK_IsHalted()
T3C3C 6518:581.654 - 2.766ms returns TRUE
T3C3C 6518:581.715 JLINK_HasError()
T3C3C 6518:581.758 JLINK_Halt()
T3C3C 6518:581.798 - 0.059ms returns 0x00
T3C3C 6518:581.841 JLINK_IsHalted()
T3C3C 6518:581.879 - 0.055ms returns TRUE
T3C3C 6518:581.916 JLINK_IsHalted()
T3C3C 6518:581.949 - 0.050ms returns TRUE
T3C3C 6518:581.985 JLINK_IsHalted()
T3C3C 6518:582.018 - 0.050ms returns TRUE
T3C3C 6518:582.056 JLINK_HasError()
T3C3C 6518:582.094 JLINK_ReadReg(R15 (PC))
T3C3C 6518:582.144 - 0.078ms returns 0x0800338C
T3C3C 6518:582.192 JLINK_ReadReg(XPSR)
T3C3C 6518:582.227 - 0.051ms returns 0x61000000
T3C3C 6518:582.271 JLINK_HasError()
T3C3C 6518:582.309 JLINK_ClrBPEx(BPHandle = 0x00000002)
T3C3C 6518:582.344 - 0.052ms returns 0x00
T3C3C 6518:582.380 JLINK_HasError()
T3C3C 6518:582.416 JLINK_ClrBPEx(BPHandle = 0x00000003)
T3C3C 6518:582.450 - 0.051ms returns 0x00
T3C3C 6518:582.486 JLINK_HasError()
T3C3C 6518:582.521 JLINK_ClrBPEx(BPHandle = 0x00000004)
T3C3C 6518:582.556 - 0.050ms returns 0x00
T3C3C 6518:582.591 JLINK_HasError()
T3C3C 6518:582.627 JLINK_ClrBPEx(BPHandle = 0x00000005)
T3C3C 6518:582.661 - 0.050ms returns 0x00
T3C3C 6518:582.696 JLINK_HasError()
T3C3C 6518:582.745 JLINK_HasError()
T3C3C 6518:582.808 JLINK_ReadMemU32(0xE000ED30, 0x1 Items)
T3C3C 6518:582.865   CPU_ReadMem(4 bytes @ 0xE000ED30)
T3C3C 6518:583.532   Data:  02 00 00 00
T3C3C 6518:583.598 - 0.807ms returns 1 (0x1)
T3C3C 6518:583.638 JLINK_ReadMemU32(0xE0001028, 0x1 Items)
T3C3C 6518:583.683   CPU_ReadMem(4 bytes @ 0xE0001028)
T3C3C 6518:585.093   Data:  00 00 00 00
T3C3C 6518:585.211   Debug reg: DWT_FUNC[0]
T3C3C 6518:585.261 - 1.640ms returns 1 (0x1)
T3C3C 6518:585.311 JLINK_ReadMemU32(0xE0001038, 0x1 Items)
T3C3C 6518:585.372   CPU_ReadMem(4 bytes @ 0xE0001038)
T3C3C 6518:586.480   Data:  00 02 00 00
T3C3C 6518:586.594   Debug reg: DWT_FUNC[1]
T3C3C 6518:586.645 - 1.350ms returns 1 (0x1)
T3C3C 6518:586.694 JLINK_ReadMemU32(0xE0001048, 0x1 Items)
T3C3C 6518:586.771   CPU_ReadMem(4 bytes @ 0xE0001048)
T3C3C 6518:587.447   Data:  00 00 00 00
T3C3C 6518:587.514   Debug reg: DWT_FUNC[2]
T3C3C 6518:587.563 - 0.886ms returns 1 (0x1)
T3C3C 6518:587.603 JLINK_ReadMemU32(0xE0001058, 0x1 Items)
T3C3C 6518:587.647   CPU_ReadMem(4 bytes @ 0xE0001058)
T3C3C 6518:588.306   Data:  00 00 00 00
T3C3C 6518:588.372   Debug reg: DWT_FUNC[3]
T3C3C 6518:588.421 - 0.835ms returns 1 (0x1)
T3C3C 6518:588.548 JLINK_HasError()
T3C3C 6518:588.589 JLINK_ReadReg(R0)
T3C3C 6518:588.628 - 0.055ms returns 0x00000000
T3C3C 6518:588.665 JLINK_ReadReg(R1)
T3C3C 6518:588.699 - 0.060ms returns 0x20000024
T3C3C 6518:588.745 JLINK_ReadReg(R2)
T3C3C 6518:588.780 - 0.051ms returns 0x00000000
T3C3C 6518:588.816 JLINK_ReadReg(R3)
T3C3C 6518:588.850 - 0.050ms returns 0x2000004C
T3C3C 6518:588.886 JLINK_ReadReg(R4)
T3C3C 6518:588.920 - 0.050ms returns 0x00000000
T3C3C 6518:588.956 JLINK_ReadReg(R5)
T3C3C 6518:588.990 - 0.050ms returns 0x00000000
T3C3C 6518:589.026 JLINK_ReadReg(R6)
T3C3C 6518:589.060 - 0.050ms returns 0x00000000
T3C3C 6518:589.095 JLINK_ReadReg(R7)
T3C3C 6518:589.129 - 0.050ms returns 0x00000000
T3C3C 6518:589.165 JLINK_ReadReg(R8)
T3C3C 6518:589.199 - 0.050ms returns 0x00000000
T3C3C 6518:589.234 JLINK_ReadReg(R9)
T3C3C 6518:589.268 - 0.050ms returns 0x00000000
T3C3C 6518:589.304 JLINK_ReadReg(R10)
T3C3C 6518:589.337 - 0.050ms returns 0x00000000
T3C3C 6518:589.373 JLINK_ReadReg(R11)
T3C3C 6518:589.407 - 0.050ms returns 0x00000000
T3C3C 6518:589.442 JLINK_ReadReg(R12)
T3C3C 6518:589.476 - 0.050ms returns 0x00000100
T3C3C 6518:589.512 JLINK_ReadReg(R13 (SP))
T3C3C 6518:589.546 - 0.051ms returns 0x200007E0
T3C3C 6518:589.582 JLINK_ReadReg(R14)
T3C3C 6518:589.616 - 0.050ms returns 0x0800338B
T3C3C 6518:589.651 JLINK_ReadReg(R15 (PC))
T3C3C 6518:589.686 - 0.051ms returns 0x0800338C
T3C3C 6518:589.725 JLINK_ReadReg(XPSR)
T3C3C 6518:589.759 - 0.051ms returns 0x61000000
T3C3C 6518:589.795 JLINK_ReadReg(MSP)
T3C3C 6518:589.828 - 0.050ms returns 0x20004538
T3C3C 6518:589.864 JLINK_ReadReg(PSP)
T3C3C 6518:589.898 - 0.050ms returns 0x200007E0
T3C3C 6518:589.934 JLINK_ReadReg(CFBP)
T3C3C 6518:589.967 - 0.050ms returns 0x02000000
T3C3C 6518:590.003 JLINK_ReadReg(FPSCR)
T3C3C 6518:593.563 - 3.591ms returns 0x00000000
T3C3C 6518:593.620 JLINK_ReadReg(FPS0)
T3C3C 6518:593.658 - 0.055ms returns 0x00000000
T3C3C 6518:593.694 JLINK_ReadReg(FPS1)
T3C3C 6518:593.728 - 0.051ms returns 0x00000000
T3C3C 6518:593.765 JLINK_ReadReg(FPS2)
T3C3C 6518:593.806 - 0.070ms returns 0x00000000
T3C3C 6518:593.888 JLINK_ReadReg(FPS3)
T3C3C 6518:593.952 - 0.082ms returns 0x00000000
T3C3C 6518:593.998 JLINK_ReadReg(FPS4)
T3C3C 6518:594.052 - 0.073ms returns 0x00000000
T3C3C 6518:594.098 JLINK_ReadReg(FPS5)
T3C3C 6518:594.152 - 0.072ms returns 0x00000000
T3C3C 6518:594.197 JLINK_ReadReg(FPS6)
T3C3C 6518:594.251 - 0.071ms returns 0x00000000
T3C3C 6518:594.297 JLINK_ReadReg(FPS7)
T3C3C 6518:594.350 - 0.071ms returns 0x00000000
T3C3C 6518:594.396 JLINK_ReadReg(FPS8)
T3C3C 6518:594.450 - 0.071ms returns 0x00000000
T3C3C 6518:594.496 JLINK_ReadReg(FPS9)
T3C3C 6518:594.549 - 0.071ms returns 0x00000000
T3C3C 6518:594.595 JLINK_ReadReg(FPS10)
T3C3C 6518:594.649 - 0.072ms returns 0x00000000
T3C3C 6518:594.694 JLINK_ReadReg(FPS11)
T3C3C 6518:594.748 - 0.071ms returns 0x00000000
T3C3C 6518:594.799 JLINK_ReadReg(FPS12)
T3C3C 6518:594.850 - 0.068ms returns 0x00000000
T3C3C 6518:594.895 JLINK_ReadReg(FPS13)
T3C3C 6518:594.949 - 0.072ms returns 0x00000000
T3C3C 6518:594.995 JLINK_ReadReg(FPS14)
T3C3C 6518:595.048 - 0.071ms returns 0x00000000
T3C3C 6518:595.094 JLINK_ReadReg(FPS15)
T3C3C 6518:595.147 - 0.073ms returns 0x00000000
T3C3C 6518:595.193 JLINK_ReadReg(FPS16)
T3C3C 6518:595.247 - 0.071ms returns 0x00000000
T3C3C 6518:595.293 JLINK_ReadReg(FPS17)
T3C3C 6518:595.346 - 0.070ms returns 0x00000000
T3C3C 6518:595.392 JLINK_ReadReg(FPS18)
T3C3C 6518:595.445 - 0.071ms returns 0x00000000
T3C3C 6518:595.491 JLINK_ReadReg(FPS19)
T3C3C 6518:595.544 - 0.071ms returns 0x00000000
T3C3C 6518:595.589 JLINK_ReadReg(FPS20)
T3C3C 6518:595.644 - 0.072ms returns 0x00000000
T3C3C 6518:595.690 JLINK_ReadReg(FPS21)
T3C3C 6518:595.743 - 0.072ms returns 0x00000000
T3C3C 6518:595.793 JLINK_ReadReg(FPS22)
T3C3C 6518:595.858 - 0.084ms returns 0x00000000
T3C3C 6518:595.905 JLINK_ReadReg(FPS23)
T3C3C 6518:595.959 - 0.072ms returns 0x00000000
T3C3C 6518:596.003 JLINK_ReadReg(FPS24)
T3C3C 6518:596.058 - 0.072ms returns 0x00000000
T3C3C 6518:596.104 JLINK_ReadReg(FPS25)
T3C3C 6518:596.157 - 0.072ms returns 0x00000000
T3C3C 6518:596.203 JLINK_ReadReg(FPS26)
T3C3C 6518:596.256 - 0.071ms returns 0x00000000
T3C3C 6518:596.302 JLINK_ReadReg(FPS27)
T3C3C 6518:596.356 - 0.072ms returns 0x00000000
T3C3C 6518:596.402 JLINK_ReadReg(FPS28)
T3C3C 6518:596.456 - 0.071ms returns 0x00000000
T3C3C 6518:596.502 JLINK_ReadReg(FPS29)
T3C3C 6518:596.555 - 0.072ms returns 0x00000000
T3C3C 6518:596.601 JLINK_ReadReg(FPS30)
T3C3C 6518:596.655 - 0.072ms returns 0x00000000
T3C3C 6518:596.701 JLINK_ReadReg(FPS31)
T3C3C 6518:596.754 - 0.071ms returns 0x00000000
T2DBC 6518:597.151 JLINK_ReadMemEx(0x200007E4, 0x4 Bytes, Flags = 0x02000000)
T2DBC 6518:597.221   CPU_ReadMem(64 bytes @ 0x200007C0)
T2DBC 6518:598.060    -- Updating C cache (64 bytes @ 0x200007C0)
T2DBC 6518:598.128    -- Read from C cache (4 bytes @ 0x200007E4)
T2DBC 6518:598.179   Data:  BD 25 00 08
T2DBC 6518:598.228 - 1.309ms returns 4 (0x4)
T2DBC 6518:599.032 JLINK_ReadMemEx(0x200007E0, 0x4 Bytes, Flags = 0x02000000)
T2DBC 6518:599.078    -- Read from C cache (4 bytes @ 0x200007E0)
T2DBC 6518:599.129   Data:  00 00 00 00
T2DBC 6518:599.178 - 0.163ms returns 4 (0x4)
T2DBC 6518:599.216 JLINK_ReadMemEx(0x200007E4, 0x4 Bytes, Flags = 0x02000000)
T2DBC 6518:599.252    -- Read from C cache (4 bytes @ 0x200007E4)
T2DBC 6518:599.302   Data:  BD 25 00 08
T2DBC 6518:599.352 - 0.152ms returns 4 (0x4)
T2DBC 6518:603.273 JLINK_HasError()
T2DBC 6518:603.337 JLINK_ReadMemU32(0xE0001004, 0x1 Items)
T2DBC 6518:603.389   CPU_ReadMem(4 bytes @ 0xE0001004)
T2DBC 6518:604.037   Data:  AB 62 40 02
T2DBC 6518:604.107   Debug reg: DWT_CYCCNT
T2DBC 6518:604.156 - 0.836ms returns 1 (0x1)
T2DBC 6518:604.578 JLINK_ReadMemEx(0x20000028, 0x1 Bytes, Flags = 0x02000000)
T2DBC 6518:604.628   CPU_ReadMem(64 bytes @ 0x20000000)
T2DBC 6518:605.456    -- Updating C cache (64 bytes @ 0x20000000)
T2DBC 6518:605.523    -- Read from C cache (1 bytes @ 0x20000028)
T2DBC 6518:605.574   Data:  00
T2DBC 6518:605.623 - 1.062ms returns 1 (0x1)
T2DBC 6518:605.692 JLINK_ReadMemEx(0x20000027, 0x1 Bytes, Flags = 0x02000000)
T2DBC 6518:605.741    -- Read from C cache (1 bytes @ 0x20000027)
T2DBC 6518:605.802   Data:  00
T2DBC 6518:605.882 - 0.208ms returns 1 (0x1)
T2DBC 6518:605.939 JLINK_ReadMemEx(0x20000029, 0x1 Bytes, Flags = 0x02000000)
T2DBC 6518:605.980    -- Read from C cache (1 bytes @ 0x20000029)
T2DBC 6518:606.030   Data:  00
T2DBC 6518:606.079 - 0.157ms returns 1 (0x1)
T2DBC 6518:606.122 JLINK_ReadMemEx(0x20000010, 0x1 Bytes, Flags = 0x02000000)
T2DBC 6518:606.158    -- Read from C cache (1 bytes @ 0x20000010)
T2DBC 6518:606.208   Data:  00
T2DBC 6518:606.257 - 0.151ms returns 1 (0x1)
T2DBC 6518:606.298 JLINK_ReadMemEx(0x2000002B, 0x1 Bytes, Flags = 0x02000000)
T2DBC 6518:606.334    -- Read from C cache (1 bytes @ 0x2000002B)
T2DBC 6518:606.384   Data:  01
T2DBC 6518:606.433 - 0.151ms returns 1 (0x1)
T2DBC 6518:607.856 JLINK_ReadMemEx(0x20000464, 0x1 Bytes, Flags = 0x02000000)
T2DBC 6518:607.961   CPU_ReadMem(64 bytes @ 0x20000440)
T2DBC 6518:608.922    -- Updating C cache (64 bytes @ 0x20000440)
T2DBC 6518:608.989    -- Read from C cache (1 bytes @ 0x20000464)
T2DBC 6518:609.039   Data:  01
T2DBC 6518:609.088 - 1.249ms returns 1 (0x1)
T2DBC 6518:610.247 JLINK_ReadMemEx(0x20000450, 0x14 Bytes, Flags = 0x02000000)
T2DBC 6518:610.299    -- Read from C cache (20 bytes @ 0x20000450)
T2DBC 6518:610.351   Data:  00 00 00 00 00 00 00 00 00 00 00 00 00 00 00 00 ...
T2DBC 6518:610.400 - 0.169ms returns 20 (0x14)
T2DBC 6518:610.442 JLINK_ReadMemEx(0x20000024, 0x1 Bytes, Flags = 0x02000000)
T2DBC 6518:610.479    -- Read from C cache (1 bytes @ 0x20000024)
T2DBC 6518:610.528   Data:  01
T2DBC 6518:610.577 - 0.151ms returns 1 (0x1)
T3C3C 6524:768.390 JLINK_ReadMemEx(0x0800338C, 0x2 Bytes, Flags = 0x02000000)
T3C3C 6524:768.509   CPU_ReadMem(64 bytes @ 0x08003380)
T3C3C 6524:769.797    -- Updating C cache (64 bytes @ 0x08003380)
T3C3C 6524:769.870    -- Read from C cache (2 bytes @ 0x0800338C)
T3C3C 6524:769.924   Data:  0B 49
T3C3C 6524:769.976 - 1.604ms returns 2 (0x2)
T3C3C 6524:770.022 JLINK_HasError()
T3C3C 6524:770.061 JLINK_SetBPEx(Addr = 0x0800339C, Type = 0xFFFFFFF2)
T3C3C 6524:770.104 - 0.061ms returns 0x00000006
T3C3C 6524:770.144 JLINK_HasError()
T3C3C 6524:770.181 JLINK_SetBPEx(Addr = 0x080033A6, Type = 0xFFFFFFF2)
T3C3C 6524:770.217 - 0.054ms returns 0x00000007
T3C3C 6524:770.255 JLINK_HasError()
T3C3C 6524:770.293 JLINK_SetBPEx(Addr = 0x080033B0, Type = 0xFFFFFFF2)
T3C3C 6524:770.336 - 0.062ms returns 0x00000008
T3C3C 6524:770.376 JLINK_HasError()
T3C3C 6524:770.413 JLINK_HasError()
T3C3C 6524:770.452 JLINK_Go()
T3C3C 6524:771.086   CPU_WriteMem(4 bytes @ 0xE0002000)
T3C3C 6524:771.768   CPU_WriteMem(4 bytes @ 0xE0002000)
T3C3C 6524:772.619   CPU_WriteMem(4 bytes @ 0xE0002000)
T3C3C 6524:773.271   CPU_ReadMem(4 bytes @ 0xE0001000)
T3C3C 6524:773.869   CPU_WriteMem(4 bytes @ 0xE0002008)
T3C3C 6524:773.909   CPU_WriteMem(4 bytes @ 0xE000200C)
T3C3C 6524:773.938   CPU_WriteMem(4 bytes @ 0xE0002010)
T3C3C 6524:773.967   CPU_WriteMem(4 bytes @ 0xE0002014)
T3C3C 6524:775.492 - 5.066ms
T3C3C 6524:876.236 JLINK_HasError()
T3C3C 6524:876.336 JLINK_IsHalted()
T3C3C 6524:877.038 - 0.735ms returns FALSE
T3C3C 6524:977.577 JLINK_HasError()
T3C3C 6524:977.692 JLINK_IsHalted()
T3C3C 6524:978.431 - 0.771ms returns FALSE
T3C3C 6525:078.711 JLINK_HasError()
T3C3C 6525:078.821 JLINK_IsHalted()
T3C3C 6525:079.484 - 0.695ms returns FALSE
T3C3C 6525:180.233 JLINK_HasError()
T3C3C 6525:180.358 JLINK_IsHalted()
T3C3C 6525:181.753 - 1.483ms returns FALSE
T3C3C 6525:282.571 JLINK_HasError()
T3C3C 6525:282.696 JLINK_HasError()
T3C3C 6525:282.742 JLINK_ReadMemU32(0xE0001004, 0x1 Items)
T3C3C 6525:282.819   CPU_ReadMem(4 bytes @ 0xE0001004)
T3C3C 6525:283.567   Data:  82 CC 56 07
T3C3C 6525:283.642   Debug reg: DWT_CYCCNT
T3C3C 6525:283.700 - 0.978ms returns 1 (0x1)
T2DBC 6525:284.185 JLINK_ReadMemEx(0x20000028, 0x1 Bytes, Flags = 0x02000000)
T2DBC 6525:284.251   CPU_ReadMem(1 bytes @ 0x20000028)
T2DBC 6525:284.901   Data:  00
T2DBC 6525:284.977 - 0.816ms returns 1 (0x1)
T2DBC 6525:285.137 JLINK_ReadMemEx(0x20000027, 0x1 Bytes, Flags = 0x02000000)
T2DBC 6525:285.198   CPU_ReadMem(1 bytes @ 0x20000027)
T2DBC 6525:285.923   Data:  00
T2DBC 6525:285.989 - 0.869ms returns 1 (0x1)
T2DBC 6525:286.052 JLINK_ReadMemEx(0x20000029, 0x1 Bytes, Flags = 0x02000000)
T2DBC 6525:286.097   CPU_ReadMem(1 bytes @ 0x20000029)
T2DBC 6525:286.699   Data:  00
T2DBC 6525:286.765 - 0.730ms returns 1 (0x1)
T2DBC 6525:286.827 JLINK_ReadMemEx(0x20000010, 0x1 Bytes, Flags = 0x02000000)
T2DBC 6525:286.872   CPU_ReadMem(1 bytes @ 0x20000010)
T2DBC 6525:287.461   Data:  00
T2DBC 6525:287.589 - 0.791ms returns 1 (0x1)
T2DBC 6525:287.681 JLINK_ReadMemEx(0x2000002B, 0x1 Bytes, Flags = 0x02000000)
T2DBC 6525:287.754   CPU_ReadMem(1 bytes @ 0x2000002B)
T2DBC 6525:288.378   Data:  01
T2DBC 6525:288.444 - 0.780ms returns 1 (0x1)
T2DBC 6525:289.471 JLINK_ReadMemEx(0x20000464, 0x1 Bytes, Flags = 0x02000000)
T2DBC 6525:289.536   CPU_ReadMem(1 bytes @ 0x20000464)
T2DBC 6525:290.148   Data:  01
T2DBC 6525:290.215 - 0.761ms returns 1 (0x1)
T2DBC 6525:290.920 JLINK_ReadMemEx(0x20000450, 0x14 Bytes, Flags = 0x02000000)
T2DBC 6525:290.979   CPU_ReadMem(20 bytes @ 0x20000450)
T2DBC 6525:291.641   Data:  00 00 00 00 00 00 00 00 00 00 00 00 00 00 00 00 ...
T2DBC 6525:291.724 - 0.825ms returns 20 (0x14)
T2DBC 6525:291.783 JLINK_ReadMemEx(0x20000024, 0x1 Bytes, Flags = 0x02000000)
T2DBC 6525:291.830   CPU_ReadMem(1 bytes @ 0x20000024)
T2DBC 6525:292.430   Data:  01
T2DBC 6525:292.496 - 0.730ms returns 1 (0x1)
T3C3C 6525:294.365 JLINK_IsHalted()
T3C3C 6525:295.033 - 0.700ms returns FALSE
T3C3C 6525:395.352 JLINK_HasError()
T3C3C 6525:395.467 JLINK_IsHalted()
T3C3C 6525:396.197 - 0.762ms returns FALSE
T3C3C 6525:496.586 JLINK_HasError()
T3C3C 6525:496.710 JLINK_IsHalted()
